# 03 - AMBA AXI

[Quick revision](#quick-revision) | [Related topics](#related-topics)

[Back to AMBA](../README.md) | [Back to Protocols](../../README.md)

This chapter starts AXI from the common `VALID`/`READY` transfer rule,
specializes it for AXI-Stream and AXI4-Lite, then finishes with full AXI4 burst
Managers and Subordinates. The Namaste FPGA course is complete through
**128. TB Code**, with all nine sections verified at 100%.

## What is here

- The [section-organized lecture notes](Lectures/README.md) are complete
  through lesson 128. Each of the nine section files places the matching
  handwritten page directly after the lesson's original screenshots and
  explanation, and begins with a concise formal-standard interpretation of
  the protocol rules used in that section.
- The [course-linked Code index](Code/README.md)
  preserves the teaching modules and testbenches with explicit signal and
  assumption comments.
- The local
  [Arm IHI 0051B AXI-Stream specification](../../../_internal/Protocols/04%20AMBA/03%20AXI/sources/ARM-IHI-0051B-AMBA-AXI-Stream-Protocol-Specification.pdf)
  governs streaming claims; the official Arm IHI 0022H source governs
  memory-mapped AXI4 and AXI4-Lite distinctions.

The revision notes are split into the instructor's nine top-level sections and
contains meaningful real frames for all 105 video lessons. The other 23 lessons
are code resources. Lessons 50-128 add 123 untouched, original-source 1080p
frames; no frame is cropped or resized. Those same section files now add all 60
new handwritten pages in course order while preserving Kapil's first page and
its verified fairness solution.

The course layer contains verified frames for the handshake path,
master/slave integration, AXI-Stream arbiters and FIFOs, complete AXI4-Lite
read/write endpoints, protocol checking, GPIO, and full-AXI burst generation.
The [AXI-Stream standards audit](Lectures/Section%2002%20-%20AXI-Stream%20Interface%20Fundamentals.md#arm-ihi-0051b-standards-audit)
checks the lecture and teaching RTL against Arm IHI 0051B. The later lecture
files separately label AXI3, AXI4, and AXI4-Lite signals and document every
teaching-profile simplification beside the matching lesson.

## Where each AXI interface fits

| Interface | Addressed? | Transfer shape | Best first mental model |
|---|:---:|---|---|
| **AXI4-Stream** | No | A unidirectional sequence of transfers, optionally grouped into packets | A producer and consumer connected by a flow-controlled data pipe |
| **AXI4-Lite** | Yes | Single-beat memory-mapped reads and writes | Control/status-register access |
| **AXI4** | Yes | Memory-mapped single or burst transactions, with multiple outstanding operations and IDs when implemented | High-throughput access to memories, DMA engines, and interconnects |

AXI4-Stream is point-to-point at one interface: one Transmitter connects to one
Receiver. That does **not** limit a system to only two components. An AXI-Stream
interconnect can switch, arbitrate, change width, or cross a clock domain while
preserving the stream rules, as stated by the
[Arm AXI-Stream specification](../../../_internal/Protocols/04%20AMBA/03%20AXI/sources/ARM-IHI-0051B-AMBA-AXI-Stream-Protocol-Specification.pdf).

<a id="core-term-key"></a>

[Term dictionary](../../../dictionary/README.md#axi-core-terms)

## The one equation that controls the RTL

Define the acceptance event for cycle $n$ as:

$$
\text{fire}[n] = \text{TVALID}[n] \land \text{TREADY}[n]
$$

At the rising edge ending cycle $n$:

- if `fire` is `1`, exactly one transfer is accepted;
- if `TVALID=1` and `TREADY=0`, no transfer occurs and `TDATA`, `TLAST`,
  `TKEEP`, `TSTRB`, `TID`, `TDEST`, and `TUSER` associated with that offered
  transfer must remain unchanged;
- if `TVALID=0`, the Receiver must not treat `TDATA` as a transfer, regardless
  of its visible bit pattern.

The Transmitter is not permitted to wait for `TREADY` before asserting
`TVALID`. Once `TVALID` is asserted, it remains asserted until a handshake. A
Receiver **is** permitted to wait for `TVALID` before raising `TREADY`, although
pre-asserting `TREADY` gives the one-cycle, full-throughput case. These are the
actual asymmetric rules in
[section 2.2 of Arm IHI 0051B](../../../_internal/Protocols/04%20AMBA/03%20AXI/sources/ARM-IHI-0051B-AMBA-AXI-Stream-Protocol-Specification.pdf).

## Signal ownership and meaning

| Signal | Driven by | Meaning at a transfer edge |
|---|---|---|
| `ACLK` | Clock source | All interface inputs are sampled on its rising edge, and interface outputs change after rising edges. |
| `ARESETn` | Reset source | Active-LOW reset. Protocol assertion may be asynchronous, but deassertion must be synchronous. The course RTL chooses synchronous assertion too because reset is tested only inside `always @(posedge ACLK)`. |
| `TVALID` | Transmitter | The complete offered transfer is valid now. |
| `TREADY` | Receiver | The Receiver can accept the offered transfer now. |
| `TDATA` | Transmitter | Payload; byte lane $x$ is `TDATA[(8x+7):8x]`. |
| `TKEEP[x]` | Transmitter | HIGH means byte lane $x$ must be transported; LOW marks a removable null byte. |
| `TSTRB[x]` | Transmitter | With `TKEEP[x]=1`, HIGH marks a data byte and LOW marks a position byte. The combination `TKEEP=0`, `TSTRB=1` is reserved. |
| `TLAST` | Transmitter | Marks a packet boundary when the stream uses packets. |
| `TID` | Transmitter | Identifies a logical stream for ordering/interleaving rules. |
| `TDEST` | Transmitter | Supplies destination/routing information to an interconnect. |
| `TUSER` | Transmitter | Carries application-defined sideband information. The base transport model associates User bits with bytes, so null-byte removal and width conversion need special care. |
| `TWAKEUP` | Transmitter, AXI5-Stream only | Optional glitch-free activity indication for power/clock wake-up; it is not part of the transfer handshake and must not appear on AXI4-Stream. |

`TKEEP`, `TSTRB`, and even `TLAST` are conditional or optional for some usage
models; they are not universally mandatory pins. If `TREADY` is omitted for an
always-accepting Receiver, it defaults HIGH. The default and optional-signal
rules are defined in
[chapter 3 of Arm IHI 0051B](../../../_internal/Protocols/04%20AMBA/03%20AXI/sources/ARM-IHI-0051B-AMBA-AXI-Stream-Protocol-Specification.pdf).

An omitted `TLAST` needs a deliberate system default: HIGH is recommended when
the interconnect topology is unknown, while fixed LOW is safe only when no
interconnect function waits for a boundary to drain. A transfer with every
`TKEEP` bit LOW is legal, and if it carries `TLAST=1` it can represent a
zero-byte packet-ending event that must not be discarded.

## Lecture precision and corrections

| Lecture shortcut | Specification-accurate version |
|---|---|
| AXI-Stream, AXI-Lite, and AXI4 have fixed totals of 11, 19, and 43 pins. | Pin count is configuration-dependent. Data, address, ID, user, and destination widths vary, and many AXI-Stream signals are optional. Use a signal-set comparison, not one universal total. |
| `VALID` and `READY` must be completely independent. | The critical deadlock rule is asymmetric: the Transmitter must not wait for `READY` before raising `VALID`; the Receiver may wait for `VALID` before raising `READY`. Good high-throughput Receivers commonly assert `READY` early. |
| `TKEEP` and `TLAST` are mandatory AXI-Stream signals. | Both depend on the interface's supported data and packet model. Their absence has defined default behavior. |
| `TWAKEUP` is not part of AXI-Stream. | It is not an AXI4-Stream signal, but it was added as an optional AXI5-Stream wake-up signal in Issue B of the specification. |
| `TSTRB=0` means ordinary Ethernet padding. | With `TKEEP=1`, `TSTRB=0` means a **position byte**: its position matters but its `TDATA` value does not. Ethernet's 64-byte minimum frame also includes header and FCS, so “4 data bytes plus 60 padded bytes” is not a generally correct Ethernet calculation. |
| Any non-`OKAY` memory response means an empty memory or an automatic retry. | AXI responses encode protocol-defined outcomes such as `SLVERR` and `DECERR`. Recovery is a system/software policy; retry is not implied by every error. |
| A plain memory is inherently unable to signal valid data or completion. | A raw array has no protocol, but a memory macro can have chip-enable, write-enable, byte-enable, and ready/busy behavior. AXI standardizes scalable decoupled channels; it is not the only possible memory control interface. |
| The sample master is a reusable production AXI-Stream source. | It is a useful four-beat teaching model. Because `TDATA` is derived continuously from external `din * count`, `din` must remain stable for the whole packet, including stalls. A reusable source should latch its command/data or explicitly document that upstream stability contract. |
| `TVALID` must stay HIGH continuously from the first packet beat through `TLAST`. | Once a beat is offered, `TVALID` and its information must remain stable until handshake. After an accepted beat, the Transmitter may legally insert one or more `TVALID=0` bubbles before the next beat of the same packet. |
| The course slave's `dout` stores each received byte. | `dout` is a combinational view of `s_axis_tdata` while the FSM is in `store`. Actual storage requires a register enabled by `s_axis_tvalid && s_axis_tready`, or another downstream handshake. |
| SystemVerilog `logic` automatically becomes `reg` on inputs and `wire` on outputs. | `logic` is a four-state variable data type with a single-driver expectation. Port direction controls data flow; designers must still reason about nets, variables, and driver count. |
| A falling edge of `TLAST` proves packet completion. | Completion occurs on a rising edge with `TVALID && TREADY && TLAST`. A later `TLAST` falling edge is only a consequence of a particular implementation. |

## Source register

- [Arm IHI 0051B - AMBA AXI-Stream Protocol Specification](../../../_internal/Protocols/04%20AMBA/03%20AXI/sources/ARM-IHI-0051B-AMBA-AXI-Stream-Protocol-Specification.pdf)
  is the authority for handshake, byte types, packet boundaries, optional
  signals, ordering, and AXI4-Stream versus AXI5-Stream behavior.
- [Arm IHI 0022H - AMBA AXI and ACE Protocol Specification](https://developer.arm.com/-/media/Arm%20Developer%20Community/PDF/IHI0022H_amba_axi_protocol_spec.pdf)
  is the authority for the five memory-mapped channels and AXI4/AXI4-Lite
  distinctions.
- The [Namaste FPGA course page](https://namaste-fpga.com/student/learn/53)
  supplies lesson order, drawings, waveform examples, and teaching RTL through
  lesson 128. The local [section notes](Lectures/README.md) preserve the
  selected frames and their verified explanations.
- The [AMD AXI Protocol Checker overview](https://docs.amd.com/r/en-US/pg101-axi-protocol-checker/Overview)
  supports the checker integration and violation-reporting explanations in
  Section 5.
- The [AMD AXI DMA core overview](https://docs.amd.com/r/en-US/pg021_axi_dma/Core-Overview)
  supports the memory-mapped-to-stream and stream-to-memory-mapped DMA
  directions.
- The [AMD AXI4-Stream Video signaling guide](https://docs.amd.com/r/en-US/ug934_axi_videoIP/AXI4-Stream-Signaling-Interface)
  supports video-profile `TUSER[0]` start-of-frame and `TLAST` end-of-line
  meanings.

## How to revise this chapter

1. Write `fire = TVALID && TREADY` before tracing any waveform.
2. Circle only rising edges where `fire=1`; number accepted beats at those
   edges.
3. For every `TREADY=0` interval, verify the entire offered beat is unchanged.
4. On the final beat, treat `TLAST` as part of the held payload, not as a
   one-cycle pulse independent of acceptance.
5. In RTL, gate every beat counter, FIFO pointer, packet counter, and input-data
   advance with the same `fire` event.
6. Revisit the [section notes](Lectures/README.md), then explain each
   correction in the table above without looking.

## Completion checkpoint

- What exact Boolean condition means one transfer happened?
- Why may a Transmitter assert `TVALID` before `TREADY`, but not wait for it?
- Which signals must remain stable during back-pressure?
- How do `TKEEP` and `TSTRB` distinguish data, position, and null bytes?
- Why can one AXI-Stream link be point-to-point while a larger stream network
  still has multiple sources and destinations?
- What assumption about `din` is hidden inside the course's sample master?
- Why must the beat counter advance on a handshake rather than every clock?
- Why may a zero-byte transfer with `TLAST=1` still be meaningful?
- Which reset signal is required LOW during reset, and what is the synchronous
  release requirement for `ARESETn`?
- Why may `TVALID` go LOW between two beats of one packet without violating
  AXI-Stream?
- Why is the course slave's `dout` not a stored-byte output?
- Which event should a testbench use instead of `@(negedge TLAST)` to count a
  completed packet?
- Why does the course slave create a startup bubble before its first accepted
  beat?
- Which signal travels from the Receiver back to the Transmitter when the two
  blocks are connected?
- Why does state `s1` check `req2` before checking `req1`?
- If both requests stay HIGH, what grant sequence proves round-robin fairness?
- Why is the plain request/grant arbiter not yet an AXI-Stream arbiter?
- Why must an AXI-Stream arbiter keep its selection fixed during downstream
  back-pressure?
- Which three signals define accepted packet completion?
- Why is a FIFO output invalid if `m_axis_tvalid` waits for
  `m_axis_tready`?
- What happens to FIFO occupancy on a simultaneous push and pop?
- Which burst and ID fields are absent from AXI4-Lite?
- Why is `WID` an AXI3 signal rather than an AXI4-Lite signal?
- Which `WSTRB` bit enables `WDATA[23:16]`?

## Further practice

- Add later handwritten pages to Layer 2 and map each one to the matching video
  and protocol rule.
- Re-run the exact instructor testbenches with directed ready stalls and relate
  every result to the corresponding lecture frame.
- Add separate practice variants only outside the instructor-code folders so
  the course implementation remains recognizable and directly comparable.
- Extend scoreboards to derive FIXED, INCR, and WRAP address sequences and
  check the 4-KiB boundary rule.

## Quick revision

**Key relations.** $`transfer=VALID\land READY`$ · $`beats=AxLEN+1`$ · $`bytes_{beat}=2^{AxSIZE}`$.

**Common mistakes.** Sample each channel’s handshake on a rising ACLK edge. A source must keep VALID and payload stable until acceptance and must not wait for READY before asserting VALID. AW and W are independent. Burst length and size apply to full AXI, not AXI4-Lite.

**Closed-book questions**

1. How do Stream, Lite, and full AXI differ?
2. Why can waiting for READY before VALID deadlock?
3. How can AW and W arrive on different cycles?
4. What holds when a channel is stalled?
5. How do FIXED, INCR, and WRAP generate addresses?

**Full explanations:** [Handshake rule](#the-one-equation-that-controls-the-rtl) · [All nine course sections](Lectures/README.md#section-order) · [Instructor code and known limitations](Code/README.md#compile-check).

## Related topics

- [FIFO and backpressure](../../../FIFO/README.md#quick-revision)
- [AHB phase ownership](../01%20AHB/README.md#quick-revision)
- [APB register access](../02%20APB/README.md#quick-revision)

[Back to quick revision](#quick-revision)
